
T1734 000:048 SEGGER J-Link V4.60a Log File (0001ms, 0048ms total)
T1734 000:048 DLL Compiled: Jan 16 2013 17:15:30 (0001ms, 0048ms total)
T1734 000:048 Logging started @ 2017-02-08 10:00 (0001ms, 0048ms total)
T1734 000:049 JLINK_SetWarnOutHandler(...) (0000ms, 0048ms total)
T1734 000:049 JLINK_OpenEx(...)
Firmware: J-Link ARM V8 compiled Nov 14 2012 22:34:52
Hardware: V8.00
S/N: 304427362
Feature(s): RDI,FlashDL,FlashBP,JFlash,GDBFULL  returns O.K. (0026ms, 0074ms total)
T1734 000:075 JLINK_SetErrorOutHandler(...) (0000ms, 0074ms total)
T1734 000:075 JLINK_ExecCommand("ProjectFile = "C:\Users\lenovo\Desktop\ÖÇÄÜÈ¼ÆøÖÕ¶Ë433°æ±¾\Project\RVMDK£¨uv4£©\JLinkSettings.ini"", ...)  returns 0x00 (0000ms, 0074ms total)
T1734 000:078 JLINK_ExecCommand("Device = STM32F103RC", ...)
                JLINK_ExecCommand("map ram 0x20000000 - 0x2000BFFF", ...)  returns 0x00 (0000ms, 0000ms total)
                JLINK_AddMirrorAreaEx(Addr = 0x00000000, Size = 0x00000000) (0000ms, 0000ms total)
              Device "STM32F103RC" selected (256 KB flash, 48 KB RAM).  returns 0x00 (0007ms, 0081ms total)
T1734 000:085 JLINK_ExecCommand("DisableConnectionTimeout", ...)  returns 0x00 (0000ms, 0081ms total)
T1734 000:085 JLINK_GetHardwareVersion()  returns 0x13880 (0000ms, 0081ms total)
T1734 000:085 JLINK_GetDLLVersion()  returns 46001 (0000ms, 0081ms total)
T1734 000:085 JLINK_GetFirmwareString(...) (0000ms, 0081ms total)
T1734 000:089 JLINK_GetDLLVersion()  returns 46001 (0000ms, 0081ms total)
T1734 000:089 JLINK_GetCompileDateTime() (0000ms, 0081ms total)
T1734 000:091 JLINK_GetFirmwareString(...) (0000ms, 0081ms total)
T1734 000:092 JLINK_GetHardwareVersion()  returns 0x13880 (0000ms, 0081ms total)
T1734 000:096 JLINK_TIF_Select(JLINKARM_TIF_SWD)  returns 0x00 (0005ms, 0086ms total)
T1734 000:101 JLINK_SetSpeed(500) (0001ms, 0087ms total)
T1734 000:102 JLINK_GetId() >0x108 TIF>Found SWD-DP with ID 0x1BA01477 >0x0D TIF> >0x28 TIF> >0x0D TIF> >0x28 TIF> >0x0D TIF> >0x21 TIF> >0x0D TIF> >0x28 TIF> >0x0D TIF> >0x28 TIF> >0x0D TIF> >0x28 TIF> >0x0D TIF> >0x21 TIF> >0x0D TIF> >0x21 TIF> >0x0D TIF> >0x28 TIF> >0x0D TIF> >0x21 TIF> >0x0D TIF> >0x21 TIF> >0x108 TIF>Found SWD-DP with ID 0x1BA01477 >0x0D TIF> >0x21 TIF> >0x0D TIF> >0x28 TIF> >0x0D TIF> >0x28 TIF> >0x0D TIF> >0x21 TIF> >0x0D TIF> >0x21 TIF> >0x0D TIF> >0x28 TIF> >0x0D TIF> >0x21 TIF>
 >0x0D TIF> >0x21 TIF> >0x0D TIF> >0x21 TIF> >0x0D TIF> >0x21 TIF> >0x0D TIF> >0x21 TIF> >0x0D TIF> >0x28 TIF> >0x0D TIF> >0x28 TIF> >0x0D TIF> >0x21 TIF> >0x0D TIF> >0x21 TIF> >0x0D TIF> >0x28 TIF> >0x0D TIF> >0x21 TIF> >0x0D TIF> >0x21 TIF> >0x0D TIF> >0x28 TIF> >0x0D TIF> >0x28 TIF> >0x0D TIF> >0x28 TIF> >0x0D TIF> >0x21 TIF> >0x0D TIF> >0x21 TIF> >0x0D TIF> >0x28 TIF> >0x0D TIF> >0x28 TIF> >0x0D TIF> >0x28 TIF> >0x0D TIF> >0x21 TIF> >0x0D TIF> >0x21 TIF> >0x0D TIF> >0x21 TIF>TPIU fitted.ETM fitted.
 >0x0D TIF> >0x28 TIF> >0x0D TIF> >0x21 TIF> >0x0D TIF> >0x21 TIF> >0x0D TIF> >0x28 TIF> >0x0D TIF> >0x21 TIF> >0x0D TIF> >0x21 TIF>FPUnit: 6 code (BP) slots and 2 literal slots >0x0D TIF> >0x28 TIF> >0x0D TIF> >0x21 TIF> >0x0D TIF> >0x21 TIF> >0x0D TIF> >0x28 TIF> >0x0D TIF> >0x21 TIF> >0x0D TIF> >0x21 TIF> >0x0D TIF> >0x28 TIF> >0x0D TIF> >0x21 TIF> >0x0D TIF> >0x21 TIF> >0x0D TIF> >0x28 TIF> >0x0D TIF> >0x21 TIF> >0x0D TIF> >0x21 TIF>Found Cortex-M3 r1p1, Little endian. >0x0D TIF> >0x21 TIF>
  returns 0x1BA01477 (0139ms, 0226ms total)
T1734 000:241 JLINK_GetDeviceFamily()  returns 3 (0000ms, 0226ms total)
T1734 000:243 JLINK_ReadMem (0xE00FFFF0, 0x0010 Bytes, ...) -- CPU is running -- CPU_ReadMem(16 bytes @ 0xE00FFFF0) -- Data:  0D 00 00 00 10 00 00 00 05 00 00 00 B1 00 00 00  returns 0x00 (0002ms, 0228ms total)
T1734 000:245 JLINK_ReadMem (0xE00FFFD0, 0x0020 Bytes, ...) -- CPU is running -- CPU_ReadMem(32 bytes @ 0xE00FFFD0) -- Data:  00 00 00 00 00 00 00 00 00 00 00 00 00 00 00 00 ...  returns 0x00 (0002ms, 0230ms total)
T1734 000:247 JLINK_ReadMem (0xE00FF000, 0x0018 Bytes, ...) -- CPU is running -- CPU_ReadMem(24 bytes @ 0xE00FF000) -- Data:  03 F0 F0 FF 03 20 F0 FF 03 30 F0 FF 03 10 F0 FF ...  returns 0x00 (0002ms, 0232ms total)
T1734 000:249 JLINK_ReadMemU32(0xE000ED00, 0x0001 Items, ...) -- CPU is running -- CPU_ReadMem(4 bytes @ 0xE000ED00) -- Data:  31 C2 1F 41  returns 0x01 (0002ms, 0234ms total)
T1734 000:251 JLINK_SetResetType(JLINKARM_RESET_TYPE_NORMAL)  returns JLINKARM_RESET_TYPE_NORMAL (0000ms, 0234ms total)
T1734 000:251 JLINK_Reset() -- CPU is running -- CPU_WriteMem(4 bytes @ 0xE000EDF0) -- CPU is running -- CPU_WriteMem(4 bytes @ 0xE000EDFC) >0x35 TIF> -- CPU is running -- CPU_WriteMem(4 bytes @ 0xE000ED0C) -- CPU is running -- CPU_ReadMem(4 bytes @ 0xE000EDF0) -- CPU is running -- CPU_ReadMem(4 bytes @ 0xE000EDF0) -- CPU is running -- CPU_WriteMem(4 bytes @ 0xE000EDF0) -- CPU is running -- CPU_WriteMem(4 bytes @ 0xE000EDFC) -- CPU is running -- CPU_ReadMem(4 bytes @ 0xE000EDF0)
 -- CPU_WriteMem(4 bytes @ 0xE0002000) (0029ms, 0263ms total)
T1734 000:280 JLINK_Halt()  returns 0x00 (0000ms, 0263ms total)
T1734 000:280 JLINK_IsHalted()  returns TRUE (0000ms, 0263ms total)
T1734 000:280 JLINK_ReadMemU32(0xE000EDF0, 0x0001 Items, ...) -- CPU_ReadMem(4 bytes @ 0xE000EDF0) -- Data:  03 00 03 00  returns 0x01 (0002ms, 0265ms total)
T1734 000:282 JLINK_WriteU32(0xE000EDF0, 0xA05F0003) -- CPU_WriteMem(4 bytes @ 0xE000EDF0)  returns 0x00 (0002ms, 0267ms total)
T1734 000:284 JLINK_WriteU32(0xE000EDFC, 0x01000000) -- CPU_WriteMem(4 bytes @ 0xE000EDFC)  returns 0x00 (0002ms, 0269ms total)
T1734 000:292 JLINK_GetHWStatus(...)  returns 0x00 (0001ms, 0270ms total)
T1734 000:296 JLINK_GetNumBPUnits(Type = 0xFFFFFF00)  returns 0x06 (0001ms, 0271ms total)
T1734 000:297 JLINK_GetNumBPUnits(Type = 0xF0)  returns 0x2000 (0000ms, 0271ms total)
T1734 000:297 JLINK_GetNumWPUnits()  returns 0x04 (0000ms, 0271ms total)
T1734 000:300 JLINK_GetSpeed()  returns 0x1F4 (0000ms, 0271ms total)
T1734 000:302 JLINK_ReadMemU32(0xE000E004, 0x0001 Items, ...) -- CPU_ReadMem(4 bytes @ 0xE000E004) -- Data:  01 00 00 00  returns 0x01 (0001ms, 0272ms total)
T1734 000:304 JLINK_ReadMemU32(0xE000E004, 0x0001 Items, ...) -- CPU_ReadMem(4 bytes @ 0xE000E004) -- Data:  01 00 00 00  returns 0x01 (0001ms, 0273ms total)
T1734 000:305 JLINK_WriteMem(0xE0001000, 0x001C Bytes, ...) -- Data:  01 00 00 00 00 00 00 00 00 00 00 00 00 00 00 00 ... -- CPU_WriteMem(28 bytes @ 0xE0001000)  returns 0x1C (0002ms, 0275ms total)
T1734 000:307 JLINK_ReadMem (0xE0001000, 0x001C Bytes, ...) -- CPU_ReadMem(28 bytes @ 0xE0001000) -- Data:  01 00 00 40 00 00 00 00 00 00 00 00 00 00 00 00 ...  returns 0x00 (0002ms, 0277ms total)
T1734 000:309 JLINK_Halt()  returns 0x00 (0000ms, 0277ms total)
T1734 000:309 JLINK_IsHalted()  returns TRUE (0001ms, 0278ms total)
T1734 000:311 JLINK_WriteMem(0x20000000, 0x0164 Bytes, ...) -- Data:  00 BE 0A E0 0D 78 2D 06 68 40 08 24 40 00 00 D3 ... -- CPU_WriteMem(356 bytes @ 0x20000000)  returns 0x164 (0010ms, 0287ms total)
T1734 000:321 JLINK_WriteReg(R0, 0x08000000)  returns 0x00 (0000ms, 0287ms total)
T1734 000:321 JLINK_WriteReg(R1, 0x007A1200)  returns 0x00 (0000ms, 0287ms total)
T1734 000:321 JLINK_WriteReg(R2, 0x00000001)  returns 0x00 (0000ms, 0287ms total)
T1734 000:321 JLINK_WriteReg(R3, 0x00000000)  returns 0x00 (0000ms, 0287ms total)
T1734 000:321 JLINK_WriteReg(R4, 0x00000000)  returns 0x00 (0000ms, 0287ms total)
T1734 000:321 JLINK_WriteReg(R5, 0x00000000)  returns 0x00 (0000ms, 0287ms total)
T1734 000:321 JLINK_WriteReg(R6, 0x00000000)  returns 0x00 (0000ms, 0287ms total)
T1734 000:321 JLINK_WriteReg(R7, 0x00000000)  returns 0x00 (0000ms, 0287ms total)
T1734 000:321 JLINK_WriteReg(R8, 0x00000000)  returns 0x00 (0000ms, 0287ms total)
T1734 000:321 JLINK_WriteReg(R9, 0x20000160)  returns 0x00 (0000ms, 0287ms total)
T1734 000:321 JLINK_WriteReg(R10, 0x00000000)  returns 0x00 (0000ms, 0287ms total)
T1734 000:321 JLINK_WriteReg(R11, 0x00000000)  returns 0x00 (0000ms, 0287ms total)
T1734 000:321 JLINK_WriteReg(R12, 0x00000000)  returns 0x00 (0000ms, 0287ms total)
T1734 000:321 JLINK_WriteReg(R13, 0x20000800)  returns 0x00 (0000ms, 0287ms total)
T1734 000:321 JLINK_WriteReg(R14, 0x20000001)  returns 0x00 (0001ms, 0288ms total)
T1734 000:322 JLINK_WriteReg(R15, 0x20000038)  returns 0x00 (0000ms, 0288ms total)
T1734 000:322 JLINK_WriteReg(XPSR, 0x01000000)  returns 0x00 (0000ms, 0288ms total)
T1734 000:322 JLINK_WriteReg(MSP, 0x20000800)  returns 0x00 (0000ms, 0288ms total)
T1734 000:322 JLINK_WriteReg(PSP, 0x20000800)  returns 0x00 (0000ms, 0288ms total)
T1734 000:322 JLINK_WriteReg(CFBP, 0x00000000)  returns 0x00 (0000ms, 0288ms total)
T1734 000:322 JLINK_SetBPEx(Addr = 0x20000000, Type = 0xFFFFFFF2) -- CPU_ReadMem(2 bytes @ 0x20000000)  returns 0x00000001 (0001ms, 0289ms total)
T1734 000:323 JLINK_Go() -- CPU_WriteMem(2 bytes @ 0x20000000) -- CPU_WriteMem(4 bytes @ 0xE0002008) -- CPU_WriteMem(4 bytes @ 0xE000200C) -- CPU_WriteMem(4 bytes @ 0xE0002010) -- CPU_WriteMem(4 bytes @ 0xE0002014) -- CPU_WriteMem(4 bytes @ 0xE0002018) -- CPU_WriteMem(4 bytes @ 0xE000201C) (0021ms, 0310ms total)
T1734 000:344 JLINK_IsHalted() -- CPU_ReadMem(2 bytes @ 0x20000000)  returns TRUE (0009ms, 0319ms total)
T1734 000:353 JLINK_ReadReg(R15)  returns 0x20000000 (0000ms, 0310ms total)
T1734 000:353 JLINK_ClrBPEx(BPHandle = 0x00000001)  returns 0x00 (0000ms, 0310ms total)
T1734 000:353 JLINK_ReadReg(R0)  returns 0x00000000 (0000ms, 0310ms total)
T1734 000:354 JLINK_WriteReg(R0, 0x08000000)  returns 0x00 (0000ms, 0310ms total)
T1734 000:354 JLINK_WriteReg(R1, 0x007A1200)  returns 0x00 (0000ms, 0310ms total)
T1734 000:354 JLINK_WriteReg(R2, 0x00000001)  returns 0x00 (0000ms, 0310ms total)
T1734 000:354 JLINK_WriteReg(R3, 0x00000000)  returns 0x00 (0000ms, 0310ms total)
T1734 000:354 JLINK_WriteReg(R4, 0x00000000)  returns 0x00 (0000ms, 0310ms total)
T1734 000:354 JLINK_WriteReg(R5, 0x00000000)  returns 0x00 (0000ms, 0310ms total)
T1734 000:354 JLINK_WriteReg(R6, 0x00000000)  returns 0x00 (0000ms, 0310ms total)
T1734 000:354 JLINK_WriteReg(R7, 0x00000000)  returns 0x00 (0000ms, 0310ms total)
T1734 000:354 JLINK_WriteReg(R8, 0x00000000)  returns 0x00 (0000ms, 0310ms total)
T1734 000:354 JLINK_WriteReg(R9, 0x20000160)  returns 0x00 (0000ms, 0310ms total)
T1734 000:354 JLINK_WriteReg(R10, 0x00000000)  returns 0x00 (0000ms, 0310ms total)
T1734 000:354 JLINK_WriteReg(R11, 0x00000000)  returns 0x00 (0000ms, 0310ms total)
T1734 000:354 JLINK_WriteReg(R12, 0x00000000)  returns 0x00 (0000ms, 0310ms total)
T1734 000:354 JLINK_WriteReg(R13, 0x20000800)  returns 0x00 (0000ms, 0310ms total)
T1734 000:354 JLINK_WriteReg(R14, 0x20000001)  returns 0x00 (0000ms, 0310ms total)
T1734 000:354 JLINK_WriteReg(R15, 0x2000007C)  returns 0x00 (0000ms, 0310ms total)
T1734 000:354 JLINK_WriteReg(XPSR, 0x01000000)  returns 0x00 (0000ms, 0310ms total)
T1734 000:354 JLINK_WriteReg(MSP, 0x20000800)  returns 0x00 (0000ms, 0310ms total)
T1734 000:354 JLINK_WriteReg(PSP, 0x20000800)  returns 0x00 (0000ms, 0310ms total)
T1734 000:354 JLINK_WriteReg(CFBP, 0x00000000)  returns 0x00 (0000ms, 0310ms total)
T1734 000:354 JLINK_SetBPEx(Addr = 0x20000000, Type = 0xFFFFFFF2)  returns 0x00000002 (0000ms, 0310ms total)
T1734 000:354 JLINK_Go() (0004ms, 0314ms total)
T1734 000:358 JLINK_IsHalted()  returns FALSE (0001ms, 0315ms total)
T1734 000:390 JLINK_IsHalted() -- CPU_ReadMem(2 bytes @ 0x20000000)  returns TRUE (0010ms, 0324ms total)
T1734 000:400 JLINK_ReadReg(R15)  returns 0x20000000 (0000ms, 0314ms total)
T1734 000:400 JLINK_ClrBPEx(BPHandle = 0x00000002)  returns 0x00 (0000ms, 0314ms total)
T1734 000:400 JLINK_ReadReg(R0)  returns 0x00000000 (0000ms, 0314ms total)
T1734 000:451 JLINK_WriteReg(R0, 0x00000001)  returns 0x00 (0000ms, 0314ms total)
T1734 000:451 JLINK_WriteReg(R1, 0x007A1200)  returns 0x00 (0000ms, 0314ms total)
T1734 000:451 JLINK_WriteReg(R2, 0x00000001)  returns 0x00 (0000ms, 0314ms total)
T1734 000:451 JLINK_WriteReg(R3, 0x00000000)  returns 0x00 (0000ms, 0314ms total)
T1734 000:451 JLINK_WriteReg(R4, 0x00000000)  returns 0x00 (0000ms, 0314ms total)
T1734 000:451 JLINK_WriteReg(R5, 0x00000000)  returns 0x00 (0000ms, 0314ms total)
T1734 000:451 JLINK_WriteReg(R6, 0x00000000)  returns 0x00 (0000ms, 0314ms total)
T1734 000:451 JLINK_WriteReg(R7, 0x00000000)  returns 0x00 (0000ms, 0314ms total)
T1734 000:451 JLINK_WriteReg(R8, 0x00000000)  returns 0x00 (0000ms, 0314ms total)
T1734 000:451 JLINK_WriteReg(R9, 0x20000160)  returns 0x00 (0000ms, 0314ms total)
T1734 000:451 JLINK_WriteReg(R10, 0x00000000)  returns 0x00 (0000ms, 0314ms total)
T1734 000:451 JLINK_WriteReg(R11, 0x00000000)  returns 0x00 (0000ms, 0314ms total)
T1734 000:451 JLINK_WriteReg(R12, 0x00000000)  returns 0x00 (0000ms, 0314ms total)
T1734 000:451 JLINK_WriteReg(R13, 0x20000800)  returns 0x00 (0000ms, 0314ms total)
T1734 000:451 JLINK_WriteReg(R14, 0x20000001)  returns 0x00 (0000ms, 0314ms total)
T1734 000:451 JLINK_WriteReg(R15, 0x2000006A)  returns 0x00 (0000ms, 0314ms total)
T1734 000:451 JLINK_WriteReg(XPSR, 0x01000000)  returns 0x00 (0000ms, 0314ms total)
T1734 000:451 JLINK_WriteReg(MSP, 0x20000800)  returns 0x00 (0000ms, 0314ms total)
T1734 000:451 JLINK_WriteReg(PSP, 0x20000800)  returns 0x00 (0000ms, 0314ms total)
T1734 000:451 JLINK_WriteReg(CFBP, 0x00000000)  returns 0x00 (0000ms, 0314ms total)
T1734 000:451 JLINK_SetBPEx(Addr = 0x20000000, Type = 0xFFFFFFF2)  returns 0x00000003 (0000ms, 0314ms total)
T1734 000:451 JLINK_Go() (0004ms, 0318ms total)
T1734 000:455 JLINK_IsHalted() -- CPU_ReadMem(2 bytes @ 0x20000000)  returns TRUE (0011ms, 0329ms total)
T1734 000:466 JLINK_ReadReg(R15)  returns 0x20000000 (0000ms, 0318ms total)
T1734 000:466 JLINK_ClrBPEx(BPHandle = 0x00000003)  returns 0x00 (0000ms, 0318ms total)
T1734 000:466 JLINK_ReadReg(R0)  returns 0x00000000 (0000ms, 0318ms total)
T1734 000:469 JLINK_WriteMem(0x20000000, 0x0164 Bytes, ...) -- Data:  00 BE 0A E0 0D 78 2D 06 68 40 08 24 40 00 00 D3 ... -- CPU_WriteMem(356 bytes @ 0x20000000)  returns 0x164 (0011ms, 0329ms total)
T1734 000:480 JLINK_WriteReg(R0, 0x08000000)  returns 0x00 (0000ms, 0329ms total)
T1734 000:480 JLINK_WriteReg(R1, 0x007A1200)  returns 0x00 (0000ms, 0329ms total)
T1734 000:480 JLINK_WriteReg(R2, 0x00000002)  returns 0x00 (0001ms, 0330ms total)
T1734 000:481 JLINK_WriteReg(R3, 0x00000000)  returns 0x00 (0000ms, 0330ms total)
T1734 000:481 JLINK_WriteReg(R4, 0x00000000)  returns 0x00 (0000ms, 0330ms total)
T1734 000:481 JLINK_WriteReg(R5, 0x00000000)  returns 0x00 (0000ms, 0330ms total)
T1734 000:481 JLINK_WriteReg(R6, 0x00000000)  returns 0x00 (0000ms, 0330ms total)
T1734 000:481 JLINK_WriteReg(R7, 0x00000000)  returns 0x00 (0000ms, 0330ms total)
T1734 000:481 JLINK_WriteReg(R8, 0x00000000)  returns 0x00 (0000ms, 0330ms total)
T1734 000:481 JLINK_WriteReg(R9, 0x20000160)  returns 0x00 (0000ms, 0330ms total)
T1734 000:481 JLINK_WriteReg(R10, 0x00000000)  returns 0x00 (0000ms, 0330ms total)
T1734 000:481 JLINK_WriteReg(R11, 0x00000000)  returns 0x00 (0000ms, 0330ms total)
T1734 000:481 JLINK_WriteReg(R12, 0x00000000)  returns 0x00 (0000ms, 0330ms total)
T1734 000:481 JLINK_WriteReg(R13, 0x20000800)  returns 0x00 (0000ms, 0330ms total)
T1734 000:481 JLINK_WriteReg(R14, 0x20000001)  returns 0x00 (0000ms, 0330ms total)
T1734 000:481 JLINK_WriteReg(R15, 0x20000038)  returns 0x00 (0000ms, 0330ms total)
T1734 000:481 JLINK_WriteReg(XPSR, 0x01000000)  returns 0x00 (0000ms, 0330ms total)
T1734 000:481 JLINK_WriteReg(MSP, 0x20000800)  returns 0x00 (0000ms, 0330ms total)
T1734 000:481 JLINK_WriteReg(PSP, 0x20000800)  returns 0x00 (0000ms, 0330ms total)
T1734 000:481 JLINK_WriteReg(CFBP, 0x00000000)  returns 0x00 (0000ms, 0330ms total)
T1734 000:481 JLINK_SetBPEx(Addr = 0x20000000, Type = 0xFFFFFFF2) -- CPU_ReadMem(2 bytes @ 0x20000000)  returns 0x00000004 (0001ms, 0331ms total)
T1734 000:482 JLINK_Go() -- CPU_WriteMem(2 bytes @ 0x20000000) (0008ms, 0339ms total)
T1734 000:490 JLINK_IsHalted() -- CPU_ReadMem(2 bytes @ 0x20000000)  returns TRUE (0011ms, 0350ms total)
T1734 000:501 JLINK_ReadReg(R15)  returns 0x20000000 (0000ms, 0339ms total)
T1734 000:501 JLINK_ClrBPEx(BPHandle = 0x00000004)  returns 0x00 (0000ms, 0339ms total)
T1734 000:501 JLINK_ReadReg(R0)  returns 0x00000000 (0000ms, 0339ms total)
T1734 000:501 JLINK_WriteMem(0x20000164, 0x0400 Bytes, ...) -- Data:  F0 14 00 20 45 01 00 08 31 24 00 08 C1 23 00 08 ... -- CPU_WriteMem(1024 bytes @ 0x20000164)  returns 0x400 (0028ms, 0367ms total)
T1734 000:529 JLINK_WriteReg(R0, 0x08000000)  returns 0x00 (0000ms, 0367ms total)
T1734 000:529 JLINK_WriteReg(R1, 0x00000400)  returns 0x00 (0000ms, 0367ms total)
T1734 000:529 JLINK_WriteReg(R2, 0x20000164)  returns 0x00 (0000ms, 0367ms total)
T1734 000:529 JLINK_WriteReg(R3, 0x00000000)  returns 0x00 (0000ms, 0367ms total)
T1734 000:529 JLINK_WriteReg(R4, 0x00000000)  returns 0x00 (0000ms, 0367ms total)
T1734 000:529 JLINK_WriteReg(R5, 0x00000000)  returns 0x00 (0000ms, 0367ms total)
T1734 000:529 JLINK_WriteReg(R6, 0x00000000)  returns 0x00 (0000ms, 0367ms total)
T1734 000:529 JLINK_WriteReg(R7, 0x00000000)  returns 0x00 (0000ms, 0367ms total)
T1734 000:529 JLINK_WriteReg(R8, 0x00000000)  returns 0x00 (0000ms, 0367ms total)
T1734 000:529 JLINK_WriteReg(R9, 0x20000160)  returns 0x00 (0000ms, 0367ms total)
T1734 000:529 JLINK_WriteReg(R10, 0x00000000)  returns 0x00 (0000ms, 0367ms total)
T1734 000:529 JLINK_WriteReg(R11, 0x00000000)  returns 0x00 (0000ms, 0367ms total)
T1734 000:529 JLINK_WriteReg(R12, 0x00000000)  returns 0x00 (0000ms, 0367ms total)
T1734 000:529 JLINK_WriteReg(R13, 0x20000800)  returns 0x00 (0000ms, 0367ms total)
T1734 000:529 JLINK_WriteReg(R14, 0x20000001)  returns 0x00 (0000ms, 0367ms total)
T1734 000:529 JLINK_WriteReg(R15, 0x200000F4)  returns 0x00 (0000ms, 0367ms total)
T1734 000:529 JLINK_WriteReg(XPSR, 0x01000000)  returns 0x00 (0000ms, 0367ms total)
T1734 000:529 JLINK_WriteReg(MSP, 0x20000800)  returns 0x00 (0000ms, 0367ms total)
T1734 000:529 JLINK_WriteReg(PSP, 0x20000800)  returns 0x00 (0000ms, 0367ms total)
T1734 000:529 JLINK_WriteReg(CFBP, 0x00000000)  returns 0x00 (0000ms, 0367ms total)
T1734 000:529 JLINK_SetBPEx(Addr = 0x20000000, Type = 0xFFFFFFF2)  returns 0x00000005 (0000ms, 0367ms total)
T1734 000:529 JLINK_Go() (0005ms, 0372ms total)
T1734 000:534 JLINK_IsHalted()  returns FALSE (0002ms, 0374ms total)
T1734 000:559 JLINK_IsHalted()  returns FALSE (0001ms, 0373ms total)
T1734 000:562 JLINK_IsHalted()  returns FALSE (0001ms, 0373ms total)
T1734 000:564 JLINK_IsHalted() -- CPU_ReadMem(2 bytes @ 0x20000000)  returns TRUE (0009ms, 0381ms total)
T1734 000:573 JLINK_ReadReg(R15)  returns 0x20000000 (0000ms, 0372ms total)
T1734 000:573 JLINK_ClrBPEx(BPHandle = 0x00000005)  returns 0x00 (0000ms, 0372ms total)
T1734 000:573 JLINK_ReadReg(R0)  returns 0x00000000 (0000ms, 0372ms total)
T1734 000:574 JLINK_WriteMem(0x20000164, 0x0400 Bytes, ...) -- Data:  00 F0 88 FA 10 EB 08 00 61 41 00 24 87 EA 11 52 ... -- CPU_WriteMem(1024 bytes @ 0x20000164)  returns 0x400 (0027ms, 0399ms total)
T1734 000:601 JLINK_WriteReg(R0, 0x08000400)  returns 0x00 (0000ms, 0399ms total)
T1734 000:601 JLINK_WriteReg(R1, 0x00000400)  returns 0x00 (0000ms, 0399ms total)
T1734 000:601 JLINK_WriteReg(R2, 0x20000164)  returns 0x00 (0000ms, 0399ms total)
T1734 000:601 JLINK_WriteReg(R3, 0x00000000)  returns 0x00 (0000ms, 0399ms total)
T1734 000:601 JLINK_WriteReg(R4, 0x00000000)  returns 0x00 (0000ms, 0399ms total)
T1734 000:601 JLINK_WriteReg(R5, 0x00000000)  returns 0x00 (0000ms, 0399ms total)
T1734 000:601 JLINK_WriteReg(R6, 0x00000000)  returns 0x00 (0000ms, 0399ms total)
T1734 000:601 JLINK_WriteReg(R7, 0x00000000)  returns 0x00 (0000ms, 0399ms total)
T1734 000:601 JLINK_WriteReg(R8, 0x00000000)  returns 0x00 (0000ms, 0399ms total)
T1734 000:601 JLINK_WriteReg(R9, 0x20000160)  returns 0x00 (0000ms, 0399ms total)
T1734 000:601 JLINK_WriteReg(R10, 0x00000000)  returns 0x00 (0000ms, 0399ms total)
T1734 000:601 JLINK_WriteReg(R11, 0x00000000)  returns 0x00 (0000ms, 0399ms total)
T1734 000:601 JLINK_WriteReg(R12, 0x00000000)  returns 0x00 (0000ms, 0399ms total)
T1734 000:601 JLINK_WriteReg(R13, 0x20000800)  returns 0x00 (0000ms, 0399ms total)
T1734 000:601 JLINK_WriteReg(R14, 0x20000001)  returns 0x00 (0000ms, 0399ms total)
T1734 000:601 JLINK_WriteReg(R15, 0x200000F4)  returns 0x00 (0001ms, 0400ms total)
T1734 000:602 JLINK_WriteReg(XPSR, 0x01000000)  returns 0x00 (0000ms, 0400ms total)
T1734 000:602 JLINK_WriteReg(MSP, 0x20000800)  returns 0x00 (0000ms, 0400ms total)
T1734 000:602 JLINK_WriteReg(PSP, 0x20000800)  returns 0x00 (0000ms, 0400ms total)
T1734 000:602 JLINK_WriteReg(CFBP, 0x00000000)  returns 0x00 (0000ms, 0400ms total)
T1734 000:602 JLINK_SetBPEx(Addr = 0x20000000, Type = 0xFFFFFFF2)  returns 0x00000006 (0000ms, 0400ms total)
T1734 000:602 JLINK_Go() (0004ms, 0404ms total)
T1734 000:606 JLINK_IsHalted()  returns FALSE (0001ms, 0405ms total)
T1734 000:626 JLINK_IsHalted()  returns FALSE (0001ms, 0405ms total)
T1734 000:628 JLINK_IsHalted()  returns FALSE (0001ms, 0405ms total)
T1734 000:630 JLINK_IsHalted()  returns FALSE (0001ms, 0405ms total)
T1734 000:635 JLINK_IsHalted()  returns FALSE (0001ms, 0405ms total)
T1734 000:637 JLINK_IsHalted() -- CPU_ReadMem(2 bytes @ 0x20000000)  returns TRUE (0011ms, 0415ms total)
T1734 000:648 JLINK_ReadReg(R15)  returns 0x20000000 (0000ms, 0404ms total)
T1734 000:648 JLINK_ClrBPEx(BPHandle = 0x00000006)  returns 0x00 (0000ms, 0404ms total)
T1734 000:648 JLINK_ReadReg(R0)  returns 0x00000000 (0000ms, 0404ms total)
T1734 000:648 JLINK_WriteMem(0x20000164, 0x0400 Bytes, ...) -- Data:  13 01 00 2A 02 DC 30 BC 00 20 70 47 44 0F 44 EA ... -- CPU_WriteMem(1024 bytes @ 0x20000164)  returns 0x400 (0028ms, 0432ms total)
T1734 000:676 JLINK_WriteReg(R0, 0x08000800)  returns 0x00 (0000ms, 0432ms total)
T1734 000:676 JLINK_WriteReg(R1, 0x00000400)  returns 0x00 (0000ms, 0432ms total)
T1734 000:676 JLINK_WriteReg(R2, 0x20000164)  returns 0x00 (0000ms, 0432ms total)
T1734 000:676 JLINK_WriteReg(R3, 0x00000000)  returns 0x00 (0000ms, 0432ms total)
T1734 000:676 JLINK_WriteReg(R4, 0x00000000)  returns 0x00 (0000ms, 0432ms total)
T1734 000:676 JLINK_WriteReg(R5, 0x00000000)  returns 0x00 (0000ms, 0432ms total)
T1734 000:676 JLINK_WriteReg(R6, 0x00000000)  returns 0x00 (0000ms, 0432ms total)
T1734 000:676 JLINK_WriteReg(R7, 0x00000000)  returns 0x00 (0000ms, 0432ms total)
T1734 000:676 JLINK_WriteReg(R8, 0x00000000)  returns 0x00 (0000ms, 0432ms total)
T1734 000:676 JLINK_WriteReg(R9, 0x20000160)  returns 0x00 (0000ms, 0432ms total)
T1734 000:676 JLINK_WriteReg(R10, 0x00000000)  returns 0x00 (0000ms, 0432ms total)
T1734 000:676 JLINK_WriteReg(R11, 0x00000000)  returns 0x00 (0000ms, 0432ms total)
T1734 000:676 JLINK_WriteReg(R12, 0x00000000)  returns 0x00 (0000ms, 0432ms total)
T1734 000:676 JLINK_WriteReg(R13, 0x20000800)  returns 0x00 (0000ms, 0432ms total)
T1734 000:676 JLINK_WriteReg(R14, 0x20000001)  returns 0x00 (0000ms, 0432ms total)
T1734 000:676 JLINK_WriteReg(R15, 0x200000F4)  returns 0x00 (0000ms, 0432ms total)
T1734 000:676 JLINK_WriteReg(XPSR, 0x01000000)  returns 0x00 (0000ms, 0432ms total)
T1734 000:676 JLINK_WriteReg(MSP, 0x20000800)  returns 0x00 (0000ms, 0432ms total)
T1734 000:676 JLINK_WriteReg(PSP, 0x20000800)  returns 0x00 (0000ms, 0432ms total)
T1734 000:676 JLINK_WriteReg(CFBP, 0x00000000)  returns 0x00 (0000ms, 0432ms total)
T1734 000:676 JLINK_SetBPEx(Addr = 0x20000000, Type = 0xFFFFFFF2)  returns 0x00000007 (0000ms, 0432ms total)
T1734 000:676 JLINK_Go() (0005ms, 0437ms total)
T1734 000:681 JLINK_IsHalted()  returns FALSE (0002ms, 0439ms total)
T1734 000:687 JLINK_IsHalted()  returns FALSE (0001ms, 0438ms total)
T1734 000:690 JLINK_IsHalted()  returns FALSE (0001ms, 0438ms total)
T1734 000:692 JLINK_IsHalted()  returns FALSE (0001ms, 0438ms total)
T1734 000:694 JLINK_IsHalted()  returns FALSE (0001ms, 0438ms total)
T1734 000:710 JLINK_IsHalted()  returns FALSE (0001ms, 0438ms total)
T1734 000:712 JLINK_IsHalted() -- CPU_ReadMem(2 bytes @ 0x20000000)  returns TRUE (0010ms, 0447ms total)
T1734 000:722 JLINK_ReadReg(R15)  returns 0x20000000 (0000ms, 0437ms total)
T1734 000:722 JLINK_ClrBPEx(BPHandle = 0x00000007)  returns 0x00 (0000ms, 0437ms total)
T1734 000:722 JLINK_ReadReg(R0)  returns 0x00000000 (0000ms, 0437ms total)
T1734 000:723 JLINK_WriteMem(0x20000164, 0x0400 Bytes, ...) -- Data:  88 43 A2 F1 0D 06 06 EB 86 06 05 FA 06 F1 08 43 ... -- CPU_WriteMem(1024 bytes @ 0x20000164)  returns 0x400 (0028ms, 0465ms total)
T1734 000:751 JLINK_WriteReg(R0, 0x08000C00)  returns 0x00 (0000ms, 0465ms total)
T1734 000:751 JLINK_WriteReg(R1, 0x00000400)  returns 0x00 (0000ms, 0465ms total)
T1734 000:751 JLINK_WriteReg(R2, 0x20000164)  returns 0x00 (0000ms, 0465ms total)
T1734 000:751 JLINK_WriteReg(R3, 0x00000000)  returns 0x00 (0000ms, 0465ms total)
T1734 000:752 JLINK_WriteReg(R4, 0x00000000)  returns 0x00 (0000ms, 0465ms total)
T1734 000:752 JLINK_WriteReg(R5, 0x00000000)  returns 0x00 (0000ms, 0465ms total)
T1734 000:752 JLINK_WriteReg(R6, 0x00000000)  returns 0x00 (0000ms, 0465ms total)
T1734 000:752 JLINK_WriteReg(R7, 0x00000000)  returns 0x00 (0000ms, 0465ms total)
T1734 000:752 JLINK_WriteReg(R8, 0x00000000)  returns 0x00 (0000ms, 0465ms total)
T1734 000:752 JLINK_WriteReg(R9, 0x20000160)  returns 0x00 (0000ms, 0465ms total)
T1734 000:752 JLINK_WriteReg(R10, 0x00000000)  returns 0x00 (0000ms, 0465ms total)
T1734 000:752 JLINK_WriteReg(R11, 0x00000000)  returns 0x00 (0000ms, 0465ms total)
T1734 000:752 JLINK_WriteReg(R12, 0x00000000)  returns 0x00 (0000ms, 0465ms total)
T1734 000:752 JLINK_WriteReg(R13, 0x20000800)  returns 0x00 (0000ms, 0465ms total)
T1734 000:752 JLINK_WriteReg(R14, 0x20000001)  returns 0x00 (0000ms, 0465ms total)
T1734 000:752 JLINK_WriteReg(R15, 0x200000F4)  returns 0x00 (0000ms, 0465ms total)
T1734 000:752 JLINK_WriteReg(XPSR, 0x01000000)  returns 0x00 (0000ms, 0465ms total)
T1734 000:752 JLINK_WriteReg(MSP, 0x20000800)  returns 0x00 (0000ms, 0465ms total)
T1734 000:752 JLINK_WriteReg(PSP, 0x20000800)  returns 0x00 (0000ms, 0465ms total)
T1734 000:752 JLINK_WriteReg(CFBP, 0x00000000)  returns 0x00 (0000ms, 0465ms total)
T1734 000:752 JLINK_SetBPEx(Addr = 0x20000000, Type = 0xFFFFFFF2)  returns 0x00000008 (0000ms, 0465ms total)
T1734 000:752 JLINK_Go() (0004ms, 0469ms total)
T1734 000:756 JLINK_IsHalted()  returns FALSE (0001ms, 0470ms total)
T1734 000:764 JLINK_IsHalted()  returns FALSE (0001ms, 0470ms total)
T1734 000:766 JLINK_IsHalted()  returns FALSE (0001ms, 0470ms total)
T1734 000:768 JLINK_IsHalted()  returns FALSE (0001ms, 0470ms total)
T1734 000:771 JLINK_IsHalted()  returns FALSE (0001ms, 0470ms total)
T1734 000:773 JLINK_IsHalted()  returns FALSE (0001ms, 0470ms total)
T1734 000:775 JLINK_IsHalted()  returns FALSE (0001ms, 0470ms total)
T1734 000:780 JLINK_IsHalted()  returns FALSE (0001ms, 0470ms total)
T1734 000:782 JLINK_IsHalted()  returns FALSE (0001ms, 0470ms total)
T1734 000:784 JLINK_IsHalted()  returns FALSE (0001ms, 0470ms total)
T1734 000:787 JLINK_IsHalted() -- CPU_ReadMem(2 bytes @ 0x20000000)  returns TRUE (0010ms, 0479ms total)
T1734 000:797 JLINK_ReadReg(R15)  returns 0x20000000 (0000ms, 0469ms total)
T1734 000:797 JLINK_ClrBPEx(BPHandle = 0x00000008)  returns 0x00 (0000ms, 0469ms total)
T1734 000:797 JLINK_ReadReg(R0)  returns 0x00000000 (0000ms, 0469ms total)
T1734 000:797 JLINK_WriteMem(0x20000164, 0x0400 Bytes, ...) -- Data:  E3 FE 04 20 2A 4B 1B 1F 00 22 0B 21 00 90 10 46 ... -- CPU_WriteMem(1024 bytes @ 0x20000164)  returns 0x400 (0028ms, 0497ms total)
T1734 000:825 JLINK_WriteReg(R0, 0x08001000)  returns 0x00 (0000ms, 0497ms total)
T1734 000:825 JLINK_WriteReg(R1, 0x00000400)  returns 0x00 (0000ms, 0497ms total)
T1734 000:825 JLINK_WriteReg(R2, 0x20000164)  returns 0x00 (0000ms, 0497ms total)
T1734 000:825 JLINK_WriteReg(R3, 0x00000000)  returns 0x00 (0000ms, 0497ms total)
T1734 000:825 JLINK_WriteReg(R4, 0x00000000)  returns 0x00 (0000ms, 0497ms total)
T1734 000:825 JLINK_WriteReg(R5, 0x00000000)  returns 0x00 (0000ms, 0497ms total)
T1734 000:825 JLINK_WriteReg(R6, 0x00000000)  returns 0x00 (0000ms, 0497ms total)
T1734 000:825 JLINK_WriteReg(R7, 0x00000000)  returns 0x00 (0000ms, 0497ms total)
T1734 000:825 JLINK_WriteReg(R8, 0x00000000)  returns 0x00 (0000ms, 0497ms total)
T1734 000:825 JLINK_WriteReg(R9, 0x20000160)  returns 0x00 (0000ms, 0497ms total)
T1734 000:825 JLINK_WriteReg(R10, 0x00000000)  returns 0x00 (0000ms, 0497ms total)
T1734 000:825 JLINK_WriteReg(R11, 0x00000000)  returns 0x00 (0000ms, 0497ms total)
T1734 000:825 JLINK_WriteReg(R12, 0x00000000)  returns 0x00 (0000ms, 0497ms total)
T1734 000:825 JLINK_WriteReg(R13, 0x20000800)  returns 0x00 (0000ms, 0497ms total)
T1734 000:825 JLINK_WriteReg(R14, 0x20000001)  returns 0x00 (0000ms, 0497ms total)
T1734 000:825 JLINK_WriteReg(R15, 0x200000F4)  returns 0x00 (0000ms, 0497ms total)
T1734 000:825 JLINK_WriteReg(XPSR, 0x01000000)  returns 0x00 (0000ms, 0497ms total)
T1734 000:825 JLINK_WriteReg(MSP, 0x20000800)  returns 0x00 (0000ms, 0497ms total)
T1734 000:825 JLINK_WriteReg(PSP, 0x20000800)  returns 0x00 (0000ms, 0497ms total)
T1734 000:825 JLINK_WriteReg(CFBP, 0x00000000)  returns 0x00 (0001ms, 0498ms total)
T1734 000:826 JLINK_SetBPEx(Addr = 0x20000000, Type = 0xFFFFFFF2)  returns 0x00000009 (0000ms, 0498ms total)
T1734 000:826 JLINK_Go() (0004ms, 0502ms total)
T1734 000:830 JLINK_IsHalted()  returns FALSE (0002ms, 0504ms total)
T1734 000:852 JLINK_IsHalted()  returns FALSE (0001ms, 0503ms total)
T1734 000:854 JLINK_IsHalted()  returns FALSE (0001ms, 0503ms total)
T1734 000:856 JLINK_IsHalted()  returns FALSE (0001ms, 0503ms total)
T1734 000:860 JLINK_IsHalted() -- CPU_ReadMem(2 bytes @ 0x20000000)  returns TRUE (0010ms, 0512ms total)
T1734 000:870 JLINK_ReadReg(R15)  returns 0x20000000 (0000ms, 0502ms total)
T1734 000:870 JLINK_ClrBPEx(BPHandle = 0x00000009)  returns 0x00 (0000ms, 0502ms total)
T1734 000:870 JLINK_ReadReg(R0)  returns 0x00000000 (0000ms, 0502ms total)
T1734 000:871 JLINK_WriteMem(0x20000164, 0x0400 Bytes, ...) -- Data:  23 43 4C 69 23 43 8C 69 23 43 CC 69 23 43 4C 6A ... -- CPU_WriteMem(1024 bytes @ 0x20000164)  returns 0x400 (0027ms, 0529ms total)
T1734 000:898 JLINK_WriteReg(R0, 0x08001400)  returns 0x00 (0000ms, 0529ms total)
T1734 000:898 JLINK_WriteReg(R1, 0x00000400)  returns 0x00 (0000ms, 0529ms total)
T1734 000:898 JLINK_WriteReg(R2, 0x20000164)  returns 0x00 (0000ms, 0529ms total)
T1734 000:898 JLINK_WriteReg(R3, 0x00000000)  returns 0x00 (0000ms, 0529ms total)
T1734 000:898 JLINK_WriteReg(R4, 0x00000000)  returns 0x00 (0000ms, 0529ms total)
T1734 000:898 JLINK_WriteReg(R5, 0x00000000)  returns 0x00 (0000ms, 0529ms total)
T1734 000:898 JLINK_WriteReg(R6, 0x00000000)  returns 0x00 (0000ms, 0529ms total)
T1734 000:899 JLINK_WriteReg(R7, 0x00000000)  returns 0x00 (0000ms, 0530ms total)
T1734 000:899 JLINK_WriteReg(R8, 0x00000000)  returns 0x00 (0000ms, 0530ms total)
T1734 000:899 JLINK_WriteReg(R9, 0x20000160)  returns 0x00 (0000ms, 0530ms total)
T1734 000:899 JLINK_WriteReg(R10, 0x00000000)  returns 0x00 (0000ms, 0530ms total)
T1734 000:899 JLINK_WriteReg(R11, 0x00000000)  returns 0x00 (0000ms, 0530ms total)
T1734 000:899 JLINK_WriteReg(R12, 0x00000000)  returns 0x00 (0000ms, 0530ms total)
T1734 000:899 JLINK_WriteReg(R13, 0x20000800)  returns 0x00 (0000ms, 0530ms total)
T1734 000:899 JLINK_WriteReg(R14, 0x20000001)  returns 0x00 (0000ms, 0530ms total)
T1734 000:899 JLINK_WriteReg(R15, 0x200000F4)  returns 0x00 (0000ms, 0530ms total)
T1734 000:899 JLINK_WriteReg(XPSR, 0x01000000)  returns 0x00 (0000ms, 0530ms total)
T1734 000:899 JLINK_WriteReg(MSP, 0x20000800)  returns 0x00 (0000ms, 0530ms total)
T1734 000:899 JLINK_WriteReg(PSP, 0x20000800)  returns 0x00 (0000ms, 0530ms total)
T1734 000:899 JLINK_WriteReg(CFBP, 0x00000000)  returns 0x00 (0000ms, 0530ms total)
T1734 000:899 JLINK_SetBPEx(Addr = 0x20000000, Type = 0xFFFFFFF2)  returns 0x0000000A (0000ms, 0530ms total)
T1734 000:899 JLINK_Go() (0004ms, 0534ms total)
T1734 000:903 JLINK_IsHalted()  returns FALSE (0002ms, 0536ms total)
T1734 000:910 JLINK_IsHalted()  returns FALSE (0001ms, 0535ms total)
T1734 000:912 JLINK_IsHalted()  returns FALSE (0001ms, 0535ms total)
T1734 000:927 JLINK_IsHalted()  returns FALSE (0001ms, 0535ms total)
T1734 000:929 JLINK_IsHalted()  returns FALSE (0001ms, 0535ms total)
T1734 000:931 JLINK_IsHalted()  returns FALSE (0001ms, 0535ms total)
T1734 000:933 JLINK_IsHalted() -- CPU_ReadMem(2 bytes @ 0x20000000)  returns TRUE (0010ms, 0544ms total)
T1734 000:943 JLINK_ReadReg(R15)  returns 0x20000000 (0000ms, 0534ms total)
T1734 000:943 JLINK_ClrBPEx(BPHandle = 0x0000000A)  returns 0x00 (0000ms, 0534ms total)
T1734 000:943 JLINK_ReadReg(R0)  returns 0x00000000 (0000ms, 0534ms total)
T1734 000:944 JLINK_WriteMem(0x20000164, 0x0400 Bytes, ...) -- Data:  6F 6E 69 74 6F 72 20 65 78 63 65 70 74 69 6F 6E ... -- CPU_WriteMem(1024 bytes @ 0x20000164)  returns 0x400 (0027ms, 0561ms total)
T1734 000:971 JLINK_WriteReg(R0, 0x08001800)  returns 0x00 (0000ms, 0561ms total)
T1734 000:971 JLINK_WriteReg(R1, 0x00000400)  returns 0x00 (0000ms, 0561ms total)
T1734 000:971 JLINK_WriteReg(R2, 0x20000164)  returns 0x00 (0000ms, 0561ms total)
T1734 000:971 JLINK_WriteReg(R3, 0x00000000)  returns 0x00 (0000ms, 0561ms total)
T1734 000:971 JLINK_WriteReg(R4, 0x00000000)  returns 0x00 (0000ms, 0561ms total)
T1734 000:971 JLINK_WriteReg(R5, 0x00000000)  returns 0x00 (0000ms, 0561ms total)
T1734 000:972 JLINK_WriteReg(R6, 0x00000000)  returns 0x00 (0000ms, 0562ms total)
T1734 000:972 JLINK_WriteReg(R7, 0x00000000)  returns 0x00 (0000ms, 0562ms total)
T1734 000:972 JLINK_WriteReg(R8, 0x00000000)  returns 0x00 (0000ms, 0562ms total)
T1734 000:972 JLINK_WriteReg(R9, 0x20000160)  returns 0x00 (0000ms, 0562ms total)
T1734 000:972 JLINK_WriteReg(R10, 0x00000000)  returns 0x00 (0000ms, 0562ms total)
T1734 000:972 JLINK_WriteReg(R11, 0x00000000)  returns 0x00 (0000ms, 0562ms total)
T1734 000:972 JLINK_WriteReg(R12, 0x00000000)  returns 0x00 (0000ms, 0562ms total)
T1734 000:972 JLINK_WriteReg(R13, 0x20000800)  returns 0x00 (0000ms, 0562ms total)
T1734 000:972 JLINK_WriteReg(R14, 0x20000001)  returns 0x00 (0000ms, 0562ms total)
T1734 000:972 JLINK_WriteReg(R15, 0x200000F4)  returns 0x00 (0000ms, 0562ms total)
T1734 000:972 JLINK_WriteReg(XPSR, 0x01000000)  returns 0x00 (0000ms, 0562ms total)
T1734 000:972 JLINK_WriteReg(MSP, 0x20000800)  returns 0x00 (0000ms, 0562ms total)
T1734 000:972 JLINK_WriteReg(PSP, 0x20000800)  returns 0x00 (0000ms, 0562ms total)
T1734 000:972 JLINK_WriteReg(CFBP, 0x00000000)  returns 0x00 (0000ms, 0562ms total)
T1734 000:972 JLINK_SetBPEx(Addr = 0x20000000, Type = 0xFFFFFFF2)  returns 0x0000000B (0000ms, 0562ms total)
T1734 000:972 JLINK_Go() (0004ms, 0566ms total)
T1734 000:976 JLINK_IsHalted()  returns FALSE (0001ms, 0567ms total)
T1734 000:981 JLINK_IsHalted()  returns FALSE (0001ms, 0567ms total)
T1734 000:983 JLINK_IsHalted()  returns FALSE (0001ms, 0567ms total)
T1734 000:987 JLINK_IsHalted()  returns FALSE (0001ms, 0567ms total)
T1734 000:989 JLINK_IsHalted()  returns FALSE (0001ms, 0567ms total)
T1734 000:993 JLINK_IsHalted()  returns FALSE (0001ms, 0567ms total)
T1734 000:995 JLINK_IsHalted()  returns FALSE (0001ms, 0567ms total)
T1734 000:997 JLINK_IsHalted()  returns FALSE (0001ms, 0567ms total)
T1734 000:999 JLINK_IsHalted()  returns FALSE (0001ms, 0567ms total)
T1734 001:001 JLINK_IsHalted()  returns FALSE (0002ms, 0568ms total)
T1734 001:004 JLINK_IsHalted()  returns FALSE (0001ms, 0567ms total)
T1734 001:006 JLINK_IsHalted() -- CPU_ReadMem(2 bytes @ 0x20000000)  returns TRUE (0010ms, 0576ms total)
T1734 001:016 JLINK_ReadReg(R15)  returns 0x20000000 (0000ms, 0566ms total)
T1734 001:016 JLINK_ClrBPEx(BPHandle = 0x0000000B)  returns 0x00 (0000ms, 0566ms total)
T1734 001:016 JLINK_ReadReg(R0)  returns 0x00000000 (0000ms, 0566ms total)
T1734 001:016 JLINK_WriteMem(0x20000164, 0x0400 Bytes, ...) -- Data:  4F F4 01 70 00 F0 E8 FE 02 20 AD F8 00 00 00 20 ... -- CPU_WriteMem(1024 bytes @ 0x20000164)  returns 0x400 (0028ms, 0594ms total)
T1734 001:044 JLINK_WriteReg(R0, 0x08001C00)  returns 0x00 (0000ms, 0594ms total)
T1734 001:044 JLINK_WriteReg(R1, 0x00000400)  returns 0x00 (0000ms, 0594ms total)
T1734 001:044 JLINK_WriteReg(R2, 0x20000164)  returns 0x00 (0000ms, 0594ms total)
T1734 001:044 JLINK_WriteReg(R3, 0x00000000)  returns 0x00 (0000ms, 0594ms total)
T1734 001:044 JLINK_WriteReg(R4, 0x00000000)  returns 0x00 (0000ms, 0594ms total)
T1734 001:044 JLINK_WriteReg(R5, 0x00000000)  returns 0x00 (0000ms, 0594ms total)
T1734 001:044 JLINK_WriteReg(R6, 0x00000000)  returns 0x00 (0000ms, 0594ms total)
T1734 001:044 JLINK_WriteReg(R7, 0x00000000)  returns 0x00 (0000ms, 0594ms total)
T1734 001:044 JLINK_WriteReg(R8, 0x00000000)  returns 0x00 (0000ms, 0594ms total)
T1734 001:044 JLINK_WriteReg(R9, 0x20000160)  returns 0x00 (0000ms, 0594ms total)
T1734 001:044 JLINK_WriteReg(R10, 0x00000000)  returns 0x00 (0000ms, 0594ms total)
T1734 001:044 JLINK_WriteReg(R11, 0x00000000)  returns 0x00 (0000ms, 0594ms total)
T1734 001:044 JLINK_WriteReg(R12, 0x00000000)  returns 0x00 (0000ms, 0594ms total)
T1734 001:044 JLINK_WriteReg(R13, 0x20000800)  returns 0x00 (0000ms, 0594ms total)
T1734 001:044 JLINK_WriteReg(R14, 0x20000001)  returns 0x00 (0000ms, 0594ms total)
T1734 001:044 JLINK_WriteReg(R15, 0x200000F4)  returns 0x00 (0000ms, 0594ms total)
T1734 001:044 JLINK_WriteReg(XPSR, 0x01000000)  returns 0x00 (0000ms, 0594ms total)
T1734 001:044 JLINK_WriteReg(MSP, 0x20000800)  returns 0x00 (0000ms, 0594ms total)
T1734 001:044 JLINK_WriteReg(PSP, 0x20000800)  returns 0x00 (0000ms, 0594ms total)
T1734 001:044 JLINK_WriteReg(CFBP, 0x00000000)  returns 0x00 (0000ms, 0594ms total)
T1734 001:044 JLINK_SetBPEx(Addr = 0x20000000, Type = 0xFFFFFFF2)  returns 0x0000000C (0000ms, 0594ms total)
T1734 001:044 JLINK_Go() (0005ms, 0599ms total)
T1734 001:049 JLINK_IsHalted()  returns FALSE (0001ms, 0600ms total)
T1734 001:066 JLINK_IsHalted()  returns FALSE (0001ms, 0600ms total)
T1734 001:068 JLINK_IsHalted()  returns FALSE (0001ms, 0600ms total)
T1734 001:070 JLINK_IsHalted()  returns FALSE (0001ms, 0600ms total)
T1734 001:075 JLINK_IsHalted()  returns FALSE (0001ms, 0600ms total)
T1734 001:077 JLINK_IsHalted()  returns FALSE (0001ms, 0600ms total)
T1734 001:079 JLINK_IsHalted() -- CPU_ReadMem(2 bytes @ 0x20000000)  returns TRUE (0009ms, 0608ms total)
T1734 001:088 JLINK_ReadReg(R15)  returns 0x20000000 (0000ms, 0599ms total)
T1734 001:088 JLINK_ClrBPEx(BPHandle = 0x0000000C)  returns 0x00 (0000ms, 0599ms total)
T1734 001:088 JLINK_ReadReg(R0)  returns 0x00000000 (0000ms, 0599ms total)
T1734 001:088 JLINK_WriteMem(0x20000164, 0x0400 Bytes, ...) -- Data:  07 B0 BD E8 F0 8F 4F F4 96 71 0C 48 FE F7 D7 F8 ... -- CPU_WriteMem(1024 bytes @ 0x20000164)  returns 0x400 (0028ms, 0627ms total)
T1734 001:116 JLINK_WriteReg(R0, 0x08002000)  returns 0x00 (0000ms, 0627ms total)
T1734 001:116 JLINK_WriteReg(R1, 0x00000400)  returns 0x00 (0000ms, 0627ms total)
T1734 001:116 JLINK_WriteReg(R2, 0x20000164)  returns 0x00 (0000ms, 0627ms total)
T1734 001:116 JLINK_WriteReg(R3, 0x00000000)  returns 0x00 (0000ms, 0627ms total)
T1734 001:116 JLINK_WriteReg(R4, 0x00000000)  returns 0x00 (0000ms, 0627ms total)
T1734 001:116 JLINK_WriteReg(R5, 0x00000000)  returns 0x00 (0000ms, 0627ms total)
T1734 001:116 JLINK_WriteReg(R6, 0x00000000)  returns 0x00 (0000ms, 0627ms total)
T1734 001:116 JLINK_WriteReg(R7, 0x00000000)  returns 0x00 (0000ms, 0627ms total)
T1734 001:116 JLINK_WriteReg(R8, 0x00000000)  returns 0x00 (0000ms, 0627ms total)
T1734 001:116 JLINK_WriteReg(R9, 0x20000160)  returns 0x00 (0000ms, 0627ms total)
T1734 001:116 JLINK_WriteReg(R10, 0x00000000)  returns 0x00 (0000ms, 0627ms total)
T1734 001:116 JLINK_WriteReg(R11, 0x00000000)  returns 0x00 (0000ms, 0627ms total)
T1734 001:116 JLINK_WriteReg(R12, 0x00000000)  returns 0x00 (0000ms, 0627ms total)
T1734 001:116 JLINK_WriteReg(R13, 0x20000800)  returns 0x00 (0000ms, 0627ms total)
T1734 001:116 JLINK_WriteReg(R14, 0x20000001)  returns 0x00 (0000ms, 0627ms total)
T1734 001:116 JLINK_WriteReg(R15, 0x200000F4)  returns 0x00 (0000ms, 0627ms total)
T1734 001:116 JLINK_WriteReg(XPSR, 0x01000000)  returns 0x00 (0000ms, 0627ms total)
T1734 001:116 JLINK_WriteReg(MSP, 0x20000800)  returns 0x00 (0000ms, 0627ms total)
T1734 001:116 JLINK_WriteReg(PSP, 0x20000800)  returns 0x00 (0000ms, 0627ms total)
T1734 001:116 JLINK_WriteReg(CFBP, 0x00000000)  returns 0x00 (0000ms, 0627ms total)
T1734 001:116 JLINK_SetBPEx(Addr = 0x20000000, Type = 0xFFFFFFF2)  returns 0x0000000D (0000ms, 0627ms total)
T1734 001:116 JLINK_Go() (0005ms, 0632ms total)
T1734 001:121 JLINK_IsHalted()  returns FALSE (0001ms, 0633ms total)
T1734 001:128 JLINK_IsHalted()  returns FALSE (0001ms, 0633ms total)
T1734 001:130 JLINK_IsHalted()  returns FALSE (0001ms, 0633ms total)
T1734 001:132 JLINK_IsHalted()  returns FALSE (0001ms, 0633ms total)
T1734 001:155 JLINK_IsHalted() -- CPU_ReadMem(2 bytes @ 0x20000000)  returns TRUE (0010ms, 0642ms total)
T1734 001:165 JLINK_ReadReg(R15)  returns 0x20000000 (0000ms, 0632ms total)
T1734 001:165 JLINK_ClrBPEx(BPHandle = 0x0000000D)  returns 0x00 (0000ms, 0632ms total)
T1734 001:165 JLINK_ReadReg(R0)  returns 0x00000000 (0000ms, 0632ms total)
T1734 001:165 JLINK_WriteMem(0x20000164, 0x0400 Bytes, ...) -- Data:  E3 FC 00 E0 FA E7 00 BF 10 BD 00 00 0D 0A 57 61 ... -- CPU_WriteMem(1024 bytes @ 0x20000164)  returns 0x400 (0028ms, 0660ms total)
T1734 001:193 JLINK_WriteReg(R0, 0x08002400)  returns 0x00 (0000ms, 0660ms total)
T1734 001:193 JLINK_WriteReg(R1, 0x00000400)  returns 0x00 (0000ms, 0660ms total)
T1734 001:193 JLINK_WriteReg(R2, 0x20000164)  returns 0x00 (0000ms, 0660ms total)
T1734 001:193 JLINK_WriteReg(R3, 0x00000000)  returns 0x00 (0000ms, 0660ms total)
T1734 001:193 JLINK_WriteReg(R4, 0x00000000)  returns 0x00 (0000ms, 0660ms total)
T1734 001:193 JLINK_WriteReg(R5, 0x00000000)  returns 0x00 (0000ms, 0660ms total)
T1734 001:193 JLINK_WriteReg(R6, 0x00000000)  returns 0x00 (0000ms, 0660ms total)
T1734 001:193 JLINK_WriteReg(R7, 0x00000000)  returns 0x00 (0000ms, 0660ms total)
T1734 001:193 JLINK_WriteReg(R8, 0x00000000)  returns 0x00 (0000ms, 0660ms total)
T1734 001:193 JLINK_WriteReg(R9, 0x20000160)  returns 0x00 (0000ms, 0660ms total)
T1734 001:193 JLINK_WriteReg(R10, 0x00000000)  returns 0x00 (0000ms, 0660ms total)
T1734 001:193 JLINK_WriteReg(R11, 0x00000000)  returns 0x00 (0000ms, 0660ms total)
T1734 001:193 JLINK_WriteReg(R12, 0x00000000)  returns 0x00 (0000ms, 0660ms total)
T1734 001:193 JLINK_WriteReg(R13, 0x20000800)  returns 0x00 (0000ms, 0660ms total)
T1734 001:193 JLINK_WriteReg(R14, 0x20000001)  returns 0x00 (0000ms, 0660ms total)
T1734 001:193 JLINK_WriteReg(R15, 0x200000F4)  returns 0x00 (0000ms, 0660ms total)
T1734 001:193 JLINK_WriteReg(XPSR, 0x01000000)  returns 0x00 (0000ms, 0660ms total)
T1734 001:193 JLINK_WriteReg(MSP, 0x20000800)  returns 0x00 (0000ms, 0660ms total)
T1734 001:193 JLINK_WriteReg(PSP, 0x20000800)  returns 0x00 (0000ms, 0660ms total)
T1734 001:193 JLINK_WriteReg(CFBP, 0x00000000)  returns 0x00 (0000ms, 0660ms total)
T1734 001:193 JLINK_SetBPEx(Addr = 0x20000000, Type = 0xFFFFFFF2)  returns 0x0000000E (0000ms, 0660ms total)
T1734 001:193 JLINK_Go() (0005ms, 0665ms total)
T1734 001:198 JLINK_IsHalted()  returns FALSE (0002ms, 0667ms total)
T1734 001:204 JLINK_IsHalted()  returns FALSE (0001ms, 0666ms total)
T1734 001:206 JLINK_IsHalted()  returns FALSE (0001ms, 0666ms total)
T1734 001:208 JLINK_IsHalted()  returns FALSE (0001ms, 0666ms total)
T1734 001:211 JLINK_IsHalted()  returns FALSE (0001ms, 0666ms total)
T1734 001:213 JLINK_IsHalted()  returns FALSE (0001ms, 0666ms total)
T1734 001:215 JLINK_IsHalted()  returns FALSE (0001ms, 0666ms total)
T1734 001:217 JLINK_IsHalted()  returns FALSE (0001ms, 0666ms total)
T1734 001:219 JLINK_IsHalted()  returns FALSE (0001ms, 0666ms total)
T1734 001:221 JLINK_IsHalted()  returns FALSE (0001ms, 0666ms total)
T1734 001:223 JLINK_IsHalted()  returns FALSE (0001ms, 0666ms total)
T1734 001:225 JLINK_IsHalted()  returns FALSE (0001ms, 0666ms total)
T1734 001:227 JLINK_IsHalted()  returns FALSE (0001ms, 0666ms total)
T1734 001:231 JLINK_IsHalted() -- CPU_ReadMem(2 bytes @ 0x20000000)  returns TRUE (0010ms, 0675ms total)
T1734 001:241 JLINK_ReadReg(R15)  returns 0x20000000 (0000ms, 0665ms total)
T1734 001:241 JLINK_ClrBPEx(BPHandle = 0x0000000E)  returns 0x00 (0000ms, 0665ms total)
T1734 001:241 JLINK_ReadReg(R0)  returns 0x00000000 (0000ms, 0665ms total)
T1734 001:241 JLINK_WriteMem(0x20000164, 0x0400 Bytes, ...) -- Data:  6E 67 21 21 20 50 65 6E 64 53 56 43 20 65 78 63 ... -- CPU_WriteMem(1024 bytes @ 0x20000164)  returns 0x400 (0028ms, 0693ms total)
T1734 001:269 JLINK_WriteReg(R0, 0x08002800)  returns 0x00 (0000ms, 0693ms total)
T1734 001:269 JLINK_WriteReg(R1, 0x00000400)  returns 0x00 (0000ms, 0693ms total)
T1734 001:269 JLINK_WriteReg(R2, 0x20000164)  returns 0x00 (0000ms, 0693ms total)
T1734 001:269 JLINK_WriteReg(R3, 0x00000000)  returns 0x00 (0000ms, 0693ms total)
T1734 001:269 JLINK_WriteReg(R4, 0x00000000)  returns 0x00 (0000ms, 0693ms total)
T1734 001:269 JLINK_WriteReg(R5, 0x00000000)  returns 0x00 (0000ms, 0693ms total)
T1734 001:269 JLINK_WriteReg(R6, 0x00000000)  returns 0x00 (0000ms, 0693ms total)
T1734 001:269 JLINK_WriteReg(R7, 0x00000000)  returns 0x00 (0000ms, 0693ms total)
T1734 001:269 JLINK_WriteReg(R8, 0x00000000)  returns 0x00 (0000ms, 0693ms total)
T1734 001:269 JLINK_WriteReg(R9, 0x20000160)  returns 0x00 (0000ms, 0693ms total)
T1734 001:269 JLINK_WriteReg(R10, 0x00000000)  returns 0x00 (0000ms, 0693ms total)
T1734 001:269 JLINK_WriteReg(R11, 0x00000000)  returns 0x00 (0000ms, 0693ms total)
T1734 001:269 JLINK_WriteReg(R12, 0x00000000)  returns 0x00 (0000ms, 0693ms total)
T1734 001:269 JLINK_WriteReg(R13, 0x20000800)  returns 0x00 (0000ms, 0693ms total)
T1734 001:269 JLINK_WriteReg(R14, 0x20000001)  returns 0x00 (0000ms, 0693ms total)
T1734 001:269 JLINK_WriteReg(R15, 0x200000F4)  returns 0x00 (0000ms, 0693ms total)
T1734 001:269 JLINK_WriteReg(XPSR, 0x01000000)  returns 0x00 (0000ms, 0693ms total)
T1734 001:269 JLINK_WriteReg(MSP, 0x20000800)  returns 0x00 (0000ms, 0693ms total)
T1734 001:269 JLINK_WriteReg(PSP, 0x20000800)  returns 0x00 (0000ms, 0693ms total)
T1734 001:269 JLINK_WriteReg(CFBP, 0x00000000)  returns 0x00 (0000ms, 0693ms total)
T1734 001:270 JLINK_SetBPEx(Addr = 0x20000000, Type = 0xFFFFFFF2)  returns 0x0000000F (0000ms, 0693ms total)
T1734 001:270 JLINK_Go() (0004ms, 0697ms total)
T1734 001:274 JLINK_IsHalted()  returns FALSE (0002ms, 0699ms total)
T1734 001:292 JLINK_IsHalted()  returns FALSE (0001ms, 0698ms total)
T1734 001:294 JLINK_IsHalted()  returns FALSE (0001ms, 0698ms total)
T1734 001:296 JLINK_IsHalted()  returns FALSE (0001ms, 0698ms total)
T1734 001:298 JLINK_IsHalted()  returns FALSE (0001ms, 0698ms total)
T1734 001:300 JLINK_IsHalted()  returns FALSE (0001ms, 0698ms total)
T1734 001:302 JLINK_IsHalted()  returns FALSE (0001ms, 0698ms total)
T1734 001:304 JLINK_IsHalted() -- CPU_ReadMem(2 bytes @ 0x20000000)  returns TRUE (0009ms, 0706ms total)
T1734 001:313 JLINK_ReadReg(R15)  returns 0x20000000 (0000ms, 0697ms total)
T1734 001:313 JLINK_ClrBPEx(BPHandle = 0x0000000F)  returns 0x00 (0000ms, 0697ms total)
T1734 001:313 JLINK_ReadReg(R0)  returns 0x00000000 (0000ms, 0697ms total)
T1734 001:314 JLINK_WriteMem(0x20000164, 0x0400 Bytes, ...) -- Data:  6F FC FE F7 CB F8 01 20 FF F7 9E FF 00 BF 41 20 ... -- CPU_WriteMem(1024 bytes @ 0x20000164)  returns 0x400 (0027ms, 0724ms total)
T1734 001:341 JLINK_WriteReg(R0, 0x08002C00)  returns 0x00 (0000ms, 0724ms total)
T1734 001:341 JLINK_WriteReg(R1, 0x00000400)  returns 0x00 (0000ms, 0724ms total)
T1734 001:341 JLINK_WriteReg(R2, 0x20000164)  returns 0x00 (0000ms, 0724ms total)
T1734 001:341 JLINK_WriteReg(R3, 0x00000000)  returns 0x00 (0000ms, 0724ms total)
T1734 001:341 JLINK_WriteReg(R4, 0x00000000)  returns 0x00 (0000ms, 0724ms total)
T1734 001:341 JLINK_WriteReg(R5, 0x00000000)  returns 0x00 (0000ms, 0724ms total)
T1734 001:341 JLINK_WriteReg(R6, 0x00000000)  returns 0x00 (0000ms, 0724ms total)
T1734 001:341 JLINK_WriteReg(R7, 0x00000000)  returns 0x00 (0000ms, 0724ms total)
T1734 001:341 JLINK_WriteReg(R8, 0x00000000)  returns 0x00 (0000ms, 0724ms total)
T1734 001:341 JLINK_WriteReg(R9, 0x20000160)  returns 0x00 (0000ms, 0724ms total)
T1734 001:341 JLINK_WriteReg(R10, 0x00000000)  returns 0x00 (0000ms, 0724ms total)
T1734 001:341 JLINK_WriteReg(R11, 0x00000000)  returns 0x00 (0000ms, 0724ms total)
T1734 001:341 JLINK_WriteReg(R12, 0x00000000)  returns 0x00 (0000ms, 0724ms total)
T1734 001:341 JLINK_WriteReg(R13, 0x20000800)  returns 0x00 (0000ms, 0724ms total)
T1734 001:342 JLINK_WriteReg(R14, 0x20000001)  returns 0x00 (0000ms, 0725ms total)
T1734 001:342 JLINK_WriteReg(R15, 0x200000F4)  returns 0x00 (0000ms, 0725ms total)
T1734 001:342 JLINK_WriteReg(XPSR, 0x01000000)  returns 0x00 (0000ms, 0725ms total)
T1734 001:342 JLINK_WriteReg(MSP, 0x20000800)  returns 0x00 (0000ms, 0725ms total)
T1734 001:342 JLINK_WriteReg(PSP, 0x20000800)  returns 0x00 (0000ms, 0725ms total)
T1734 001:342 JLINK_WriteReg(CFBP, 0x00000000)  returns 0x00 (0000ms, 0725ms total)
T1734 001:342 JLINK_SetBPEx(Addr = 0x20000000, Type = 0xFFFFFFF2)  returns 0x00000010 (0000ms, 0725ms total)
T1734 001:342 JLINK_Go() (0004ms, 0729ms total)
T1734 001:346 JLINK_IsHalted()  returns FALSE (0001ms, 0730ms total)
T1734 001:351 JLINK_IsHalted()  returns FALSE (0001ms, 0730ms total)
T1734 001:368 JLINK_IsHalted()  returns FALSE (0001ms, 0730ms total)
T1734 001:370 JLINK_IsHalted()  returns FALSE (0001ms, 0730ms total)
T1734 001:372 JLINK_IsHalted()  returns FALSE (0001ms, 0730ms total)
T1734 001:374 JLINK_IsHalted()  returns FALSE (0001ms, 0730ms total)
T1734 001:376 JLINK_IsHalted() -- CPU_ReadMem(2 bytes @ 0x20000000)  returns TRUE (0010ms, 0739ms total)
T1734 001:386 JLINK_ReadReg(R15)  returns 0x20000000 (0000ms, 0729ms total)
T1734 001:386 JLINK_ClrBPEx(BPHandle = 0x00000010)  returns 0x00 (0000ms, 0729ms total)
